(1752624000.000139) vcan0 0CFBFFDB#1B3120EBB3FFD9FF R
(1752624000.000836) vcan0 18F48798#418CFF354CF8CEEE R
(1752624000.001461) vcan0 0CF28ECA#8685DAFFFFFF0BFF R
(1752624000.002124) vcan0 0CFBFFDB#E4F81839E4FF57FF R
(1752624000.002920) vcan0 0CF90539#FFFFFFFFFFFFFFFF R
(1752624000.003575) vcan0 0CF78D4B#2D94D544437AFF05 R
(1752624000.004214) vcan0 0CF3C7E6#5BD65D7DC905DAA9 R
(1752624000.005027) vcan0 18F52970#FDFFFF54FF7FFFFF R
(1752624000.005665) vcan0 18FAC14F#0494DD4FFF6512A9 R
(1752624000.006347) vcan0 18F3ABC0#687CC9BBFF9EB227 R
(1752624000.007133) vcan0 0CFBFFDB#FC6FDD8824FF10FF R
(1752624000.007852) vcan0 18F9EED9#FFFFFFFFFFFFFFFF R
(1752624000.008547) vcan0 18F0EDC8#D039FFFFFFFFFFFF R
(1752624000.009188) vcan0 18F2F7E0#FF5E7BFFFFFFA34C R
(1752624000.009927) vcan0 18FC5058#E988FFFFFFC5FFA7 R
(1752624000.010667) vcan0 18FB08D2#E18795B6FFFFFFFF R
(1752624000.011271) vcan0 18F48798#CB35FF9480AD9312 R
(1752624000.012012) vcan0 18F022F7#9E057990FFFFFFFF R
(1752624000.012719) vcan0 18FD5721#FFFFFFFFFFFFFFFF R
(1752624000.013422) vcan0 18F68D8B#FFFFFFFFFFFFFFFF R
(1752624000.014054) vcan0 18FC8A4C#FF26FFFFFFFF7AFF R
(1752624000.014845) vcan0 18FD7C93#596EBC461627BA6C R
(1752624000.015582) vcan0 18F3C653#C60AAE47A42EFFFF R
(1752624000.016223) vcan0 18FB8928#D664C332BB5411A9 R
(1752624000.016863) vcan0 18F909C1#FFFFFFFFFFFF08FF R
(1752624000.017473) vcan0 18F2CAA1#FFFFFFFFFFFFFFFF R
(1752624000.018261) vcan0 18FBE4E4#FFFF83FFFFFFFFFF R
(1752624000.018866) vcan0 0CFBFFDB#B61D983407FFB8FF R
(1752624000.019587) vcan0 18F0EDC8#8F67FFFFFFFFFFFF R
(1752624000.020378) vcan0 18F3DF90#0E292E4868FDDE47 R
(1752624000.021043) vcan0 18F2FC06#7A93FFFFFFFFFFFF R
(1752624000.021661) vcan0 18FD2367#FFFFF16AD6C8550E R
(1752624000.022322) vcan0 18FE34E8#7149FFFFFFFFFFFF R
(1752624000.023028) vcan0 18FB4D6F#91B2034EFFFFFF1C R
(1752624000.023807) vcan0 18F4FCA2#36B2A03DFFFFFFFF R
(1752624000.024388) vcan0 18F181DE#3BB7CB51FFFFFF6B R
(1752624000.025080) vcan0 18F0A36D#FFFFFFFFAB8A3261 R
(1752624000.025777) vcan0 18F3862D#ECC570377277FFFF R
(1752624000.026388) vcan0 18F7D780#FFE720FFFFFFFFFF R
(1752624000.026957) vcan0 18F03796#941433D2AD19B8B7 R
(1752624000.027715) vcan0 18F72ED8#FFFFFFFFFFFFFFFF R
(1752624000.028483) vcan0 18FA475A#B64DA26A2EA2C765 R
(1752624000.029163) vcan0 18F7CA2E#9EDBF6BBD0D28E70 R
(1752624000.029921) vcan0 18F00259#8166F06CAD8D941A R
(1752624000.030543) vcan0 0CFBFFDB#5354C10481FF45FF R
(1752624000.031277) vcan0 18F48798#FEB3FFA0A6B470A3 R
(1752624000.031946) vcan0 18FD2367#FFFFBDF7D25BAD4B R
(1752624000.032743) vcan0 18F3862D#6F388A5CA7C8FFFF R
(1752624000.033457) vcan0 18F690F7#DC202CBBC507D241 R
(1752624000.034124) vcan0 18F373DC#FFFFC73BFFFF91CA R
(1752624000.034881) vcan0 18F7A2D0#D2ADE9F0F527CCB4 R
(1752624000.035549) vcan0 18F964C8#FFFFFFFFFFFFFFFF R
(1752624000.036308) vcan0 18F56AA2#EA3BE0FFFFFFFFFF R
(1752624000.037063) vcan0 18FA278A#6EFFFFFFFFFFFFFF R
(1752624000.037772) vcan0 18F037B2#7342E14882CCFF65 R
(1752624000.038476) vcan0 18FB46AF#DDFF0705FFFF2BFF R
(1752624000.039241) vcan0 18F60DF6#613A9007FFFFFFFF R
(1752624000.039851) vcan0 18F56EFA#1D53CB741AAFFFFF R
(1752624000.040456) vcan0 18FC9977#03FD010ACBB4BF5F R
(1752624000.041134) vcan0 18F01BEF#89D7B98EFFFFFFBD R
(1752624000.041782) vcan0 0CFBFFDB#0B6F8B7AC1FF72FF R
(1752624000.042519) vcan0 18F4B886#5DFFFFFE52FFFFFF R
(1752624000.043287) vcan0 18FD0B45#FF58FFFFFF0E13FF R
(1752624000.044061) vcan0 18FA77D8#FFFFFFFF0EA7FFFF R
(1752624000.044810) vcan0 18FB8514#FFFFFFFF5552FFFF R
(1752624000.045538) vcan0 18F01176#FF695BFFFFFFFFFF R
(1752624000.046242) vcan0 18FD11A5#FF62FFFFFFFFFFFF R
(1752624000.046912) vcan0 18FB4705#49FFFFFFFFFFFFFF R
(1752624000.047656) vcan0 18F48798#E936FFBD6FF1AC5C R
(1752624000.048321) vcan0 18F6843F#1968A53366A71BE4 R
(1752624000.049194) vcan0 18F7831D#F9FFA0FFFFFFFFFF R
(1752624000.049868) vcan0 1AF95D31#FFFFFFFFBBFFFFFF R
(1752624000.050515) vcan0 1AF6269F#20FFFFFFFFFFFFFF R
(1752624000.051300) vcan0 1AF37A7D#7C4C2397FF03FFFF R
(1752624000.052156) vcan0 1AF1A4CC#FFFFFF40FFFFFFFF R
(1752624000.052940) vcan0 1AF7B381#FFFFFFFFFFFFFFFF R
(1752624000.053578) vcan0 1CFC023D#6E428C3D4AFFFFFF R
(1752624000.054230) vcan0 0CF28ECA#202729FFFFFF43FF R
(1752624000.054940) vcan0 0CFBFFDB#9657A3B1DAFFB4FF R
(1752624000.055724) vcan0 0CF3C7E6#57C598EA3F1D452F R
(1752624000.056395) vcan0 18F3862D#F5C5A4940053FFFF R
(1752624000.057016) vcan0 18F56AA2#E1F4E9FFFFFFFFFF R
(1752624000.057737) vcan0 18F4FCA2#AB17E3A8FFFFFFFF R
(1752624000.058333) vcan0 0CFBFFDB#AF77D75DCFFF4FFF R
(1752624000.059071) vcan0 18F3862D#BD635888595DFFFF R
(1752624000.059730) vcan0 18FC8A4C#FF75FFFFFFFF6DFF R
(1752624000.060339) vcan0 18F2FC06#5714FFFFFFFFFFFF R
(1752624000.063812) vcan0 0CFBFFDB#58CA4B4C1EFF22FF R
(1752624000.064490) vcan0 18F48798#CE2DFF4AC57F6F48 R
(1752624000.065319) vcan0 18F964C8#FFFFFFFFFFFFFFFF R
(1752624000.074300) vcan0 18F3862D#90D83D6F4758FFFF R
(1752624000.074997) vcan0 0CFBFFDB#44BA4660D5FF44FF R
(1752624000.083777) vcan0 18F7CA2E#188FD107E4056368 R
(1752624000.084375) vcan0 18F00259#B938341B751E5485 R
(1752624000.085140) vcan0 0CFBFFDB#EB7D85C9F4FF2EFF R
(1752624000.085930) vcan0 18F48798#4EACFF0B87737E26 R
(1752624000.089345) vcan0 18F3862D#B4B1951D0829FFFF R
(1752624000.095369) vcan0 0CFBFFDB#5A8C52D266FFD9FF R
(1752624000.099388) vcan0 0CF90539#FFFFFFFFFFFFFFFF R
(1752624000.100090) vcan0 0CF28ECA#320202FFFFFFE7FF R
(1752624000.105661) vcan0 18FC5058#347CFFFFFF8DFF5B R
(1752624000.106397) vcan0 0CFBFFDB#042BD4BD9AFF7BFF R
(1752624000.107276) vcan0 18F9EED9#FFFFFFFFFFFFFFFF R
(1752624000.107994) vcan0 18F2F7E0#FFEFA8FFFFFF6003 R
(1752624000.108699) vcan0 18FB08D2#11CFD2FDFFFFFFFF R
(1752624000.109448) vcan0 0CF3C7E6#AEDEAAE6D5E44C48 R
(1752624000.110129) vcan0 18F48798#E59CFF4BC8FAA26A R
(1752624000.110882) vcan0 18FB8928#E05675045DE072C0 R
(1752624000.116398) vcan0 0CF78D4B#15EE935AE78DFF24 R
(1752624000.117152) vcan0 18F3862D#93C879705027FFFF R
(1752624000.117842) vcan0 0CFBFFDB#944B598E63FF7EFF R
(1752624000.118577) vcan0 18F3DF90#D658E95AA9975E66 R
(1752624000.127051) vcan0 0CFBFFDB#2AF617EA05FFBBFF R
(1752624000.127908) vcan0 18F0EDC8#7E60FFFFFFFFFFFF R
(1752624000.128660) vcan0 18F48798#B8C9FFC0C895600F R
(1752624000.131823) vcan0 18FD2367#FFFF3765413C79B2 R
(1752624000.132592) vcan0 18F60DF6#CE4F2952FFFFFFFF R
(1752624000.136273) vcan0 18F7CA2E#6FDEF341D5E0FFFF R
(1752624000.137014) vcan0 18F00259#9B6E3726ECFFFFFF R
(1752624000.137842) vcan0 18F3862D#F366C3BC61DEFFFF R
(1752624000.138507) vcan0 18F56EFA#966E1A9FDB0EFFFF R
(1752624000.139151) vcan0 0CFBFFDB#696C4E70EFFF8FFF R
(1752624000.147805) vcan0 0CFBFFDB#B8DF85AC53FF42FF R
(1752624000.148439) vcan0 0CF28ECA#3785B5FFFFFF04FF R
(1752624000.149089) vcan0 18F48798#E120FF96E9214B5E R
(1752624000.152203) vcan0 18F4FCA2#9972AF51FFFFFFFF R
(1752624000.152954) vcan0 18F56AA2#FAF0AFFFFFFFFFFF R
(1752624000.158473) vcan0 18F3862D#71C6D91B4240FFFF R
(1752624000.159336) vcan0 0CFBFFDB#81A001AF3CFFD2FF R
(1752624000.160077) vcan0 0CF3C7E6#294774FAB42CCAA6 R
(1752624000.168664) vcan0 0CFBFFDB#859CDE6A41FF52FF R
(1752624000.169463) vcan0 18F48798#E42EFFC2FB0BA18C R
(1752624000.170341) vcan0 18F964C8#FFFFFFFFFFFFFFFF R
(1752624000.179314) vcan0 18F3862D#A5A4147B8989FFFF R
(1752624000.180024) vcan0 0CFBFFDB#1472D65AA5FF63FF R
(1752624000.189378) vcan0 0CFBFFDB#30EEE35CAAFFBEFF R
(1752624000.190058) vcan0 18F48798#8B1AFF0EE0C70C81 R
(1752624000.193735) vcan0 0CF90539#FFFFFFFFFFFFFFFF R
(1752624000.194537) vcan0 0CF28ECA#98FE96FFFFFF1DFF R
(1752624000.199849) vcan0 18FC5058#E8D6FFFFFF86FF0D R
(1752624000.200555) vcan0 18F3862D#A3C40FC1070FFFFF R
(1752624000.201168) vcan0 0CFBFFDB#4FB0D27CABFF44FF R
(1752624000.202022) vcan0 18F9EED9#FFFFFFFFFFFFFFFF R
(1752624000.202761) vcan0 18F2F7E0#FF247EFFFFFFB53E R
(1752624000.205176) vcan0 18FB8928#CEFD5C7ED089DB6A R
(1752624000.211073) vcan0 0CFBFFDB#7CC183C586FF81FF R
(1752624000.211777) vcan0 18FB08D2#1A2F4723FFFFFFFF R
(1752624000.212450) vcan0 0CF3C7E6#EB7C185B18440BFA R
(1752624000.213096) vcan0 18F48798#FC26FF29EA81F0AF R
(1752624000.213877) vcan0 18F3DF90#601F45387C8FE5C0 R
(1752624000.214537) vcan0 18F2CAA1#FFFFFFFFFFFFFFFF R
(1752624000.215879) vcan0 0CF78D4B#A40EB82EC0C8FFA6 R
(1752624000.221092) vcan0 18F3862D#8A3D1F101053FFFF R
(1752624000.221776) vcan0 0CFBFFDB#4262E7FBE2FF82FF R
(1752624000.226069) vcan0 18F60DF6#0DDB3B84FFFFFFFF R
(1752624000.231460) vcan0 0CFBFFDB#348A279D37FF2DFF R
(1752624000.232077) vcan0 18F0EDC8#6137FFFFFFFFFFFF R
(1752624000.232820) vcan0 18F48798#F8DFFF228269AB41 R
(1752624000.233557) vcan0 18F56EFA#DCF2EB68AE3CFFFF R
(1752624000.241945) vcan0 18FD2367#FFFFAABCCBC54F9F R
(1752624000.242592) vcan0 18F3862D#BC4C1FD5DEBBFFFF R
(1752624000.243341) vcan0 0CFBFFDB#0C2A20ED6DFF98FF R
(1752624000.244080) vcan0 0CF28ECA#ADB6D9FFFFFF24FF R
(1752624000.246406) vcan0 18F4FCA2#42F2297BFFFFFFFF R
(1752624000.247132) vcan0 18F56AA2#040732FFFFFFFFFF R
(1752624000.252472) vcan0 0CFBFFDB#F4615EABE2FFF0FF R
(1752624000.253239) vcan0 18F48798#2D95FFB0D6FAB2AE R
(1752624000.257145) vcan0 18F3862D#F0BBAFB36F2CFFFF R
(1752624000.262814) vcan0 0CFBFFDB#C12B26634BFF99FF R
(1752624000.263492) vcan0 0CF3C7E6#B5D13A12E995D088 R
(1752624000.272835) vcan0 0CFBFFDB#9DCA9773D5FF0BFF R
(1752624000.273385) vcan0 18F48798#D824FFAEBE86F4BD R
(1752624000.274167) vcan0 18F964C8#FFFFFFFFFFFFFFFF R
(1752624000.283038) vcan0 18F3862D#043404428696FFFF R
(1752624000.283754) vcan0 0CFBFFDB#5525439356FF45FF R
(1752624000.287391) vcan0 0CF90539#FFFFFFFFFFFFFFFF R
(1752624000.288141) vcan0 0CF28ECA#E56517FFFFFF8BFF R
(1752624000.293653) vcan0 18FC5058#7A26FFFFFFCFFF36 R
(1752624000.294382) vcan0 0CFBFFDB#B30BB43FC1FF8FFF R
(1752624000.295078) vcan0 18F9EED9#FFFFFFFFFFFFFFFF R
(1752624000.295806) vcan0 18F2F7E0#FF2648FFFFFF1FCF R
(1752624000.296491) vcan0 18F48798#561EFF2507CBA9D7 R
(1752624000.298878) vcan0 18FB8928#64848367BC8630AF R
(1752624000.304150) vcan0 18F3862D#66A6391B3F32FFFF R
(1752624000.304962) vcan0 0CFBFFDB#7AEF59B0DEFF7CFF R
(1752624000.305621) vcan0 18F3DF90#8595C2EFFE088B80 R
(1752624000.314635) vcan0 0CFBFFDB#C5125E752BFFB3FF R
(1752624000.315453) vcan0 18FB08D2#3F4293FCFFFFFFFF R
(1752624000.316151) vcan0 0CF3C7E6#514FC841176DD70E R
(1752624000.316767) vcan0 18F48798#ADBBFF222C3B43DE R
(1752624000.318988) vcan0 18F60DF6#87D97CF8FFFFFFFF R
(1752624000.325199) vcan0 0CF78D4B#6CBB14028A92FF94 R
(1752624000.325928) vcan0 18F3862D#28A2899C540EFFFF R
(1752624000.326722) vcan0 0CFBFFDB#9ED5E59E7DFF3AFF R
(1752624000.327363) vcan0 18F56EFA#0E2A98850960FFFF R
(1752624000.335878) vcan0 0CFBFFDB#37635585F4FFA1FF R
(1752624000.336665) vcan0 0CF28ECA#0806E0FFFFFF21FF R
(1752624000.337392) vcan0 18F0EDC8#29A9FFFFFFFFFFFF R
(1752624000.338105) vcan0 18F48798#D619FFCC2AF98269 R
(1752624000.340188) vcan0 18F4FCA2#FA3B8DADFFFFFFFF R
(1752624000.340937) vcan0 18F56AA2#1BEF0DFFFFFFFFFF R
(1752624000.346071) vcan0 18FD2367#FFFFBC71CC4DC742 R
(1752624000.346729) vcan0 18F3862D#BB35C9E91976FFFF R
(1752624000.347417) vcan0 0CFBFFDB#811ED05193FF2FFF R
(1752624000.356143) vcan0 0CFBFFDB#02A80D42BDFFA7FF R
(1752624000.356832) vcan0 18F48798#A7D3FFF32273B084 R
(1752624000.366540) vcan0 18F3862D#6BE214B4D99DFFFF R
(1752624000.367279) vcan0 0CFBFFDB#8A38B3564BFF94FF R
(1752624000.367938) vcan0 0CF3C7E6#2EAF387431176943 R
(1752624000.376912) vcan0 0CFBFFDB#9F4EF65075FF23FF R
(1752624000.377547) vcan0 18F48798#CE6BFFE9D8F8F3A3 R
(1752624000.378394) vcan0 18F964C8#FFFFFFFFFFFFFFFF R
(1752624000.381141) vcan0 0CF90539#FFFFFFFFFFFFFFFF R
(1752624000.387326) vcan0 18FC5058#66AFFFFFFF29FFD9 R
(1752624000.388124) vcan0 18F3862D#FBC938221F8CFFFF R
(1752624000.388829) vcan0 0CFBFFDB#B7924C7222FF2AFF R
(1752624000.389619) vcan0 0CF28ECA#F2BFE1FFFFFF31FF R
(1752624000.390406) vcan0 18F9EED9#FFFFFFFFFFFFFFFF R
(1752624000.391152) vcan0 18F2F7E0#FF68EEFFFFFFD8EA R
(1752624000.392367) vcan0 18FB8928#A7681BCC2CF72F6A R
(1752624000.397983) vcan0 0CFBFFDB#8B0C003B2BFFA5FF R
(1752624000.398735) vcan0 18F48798#8C0BFFCD1809E6B0 R
(1752624000.399512) vcan0 18F3DF90#547F897FE3338601 R
(1752624000.400208) vcan0 18F2CAA1#FFFFFFFFFFFFFFFF R
(1752624000.408490) vcan0 18F3862D#27F904666E7AFFFF R
(1752624000.409169) vcan0 0CFBFFDB#E89EC59340FFDDFF R
(1752624000.418883) vcan0 0CFBFFDB#F52F9A4BF8FFB4FF R
(1752624000.419661) vcan0 18FB08D2#5F4E3FD9FFFFFFFF R
(1752624000.420367) vcan0 0CF3C7E6#608A3621C620EFD2 R
(1752624000.421185) vcan0 18F48798#0EFDFF38DF588F9B R
(1752624000.421858) vcan0 18F60DF6#F096D5DBFFFFFFFF R
(1752624000.422475) vcan0 18F56EFA#DC79A016E64AFFFF R
(1752624000.423700) vcan0 0CF78D4B#F5AD01F81CDDFFD0 R
(1752624000.429209) vcan0 18F3862D#527E7A7C23DBFFFF R
(1752624000.429978) vcan0 0CFBFFDB#33B8CAD17CFFBBFF R
(1752624000.433966) vcan0 18F4FCA2#4EA85578FFFFFFFF R
(1752624000.434674) vcan0 18F56AA2#E8889DFFFFFFFFFF R
(1752624000.440003) vcan0 0CFBFFDB#440730BAD3FF60FF R
(1752624000.440695) vcan0 0CF28ECA#8A7EC6FFFFFF5AFF R
(1752624000.441406) vcan0 18F0EDC8#A2B4FFFFFFFFFFFF R
(1752624000.442018) vcan0 18F48798#E454FFAAE9FCD65A R
(1752624000.450367) vcan0 18FD2367#FFFFD71B27EA6FE1 R
(1752624000.451039) vcan0 18F3862D#FB2D52D9C3E8FFFF R
(1752624000.451802) vcan0 0CFBFFDB#656EC2D54EFFD2FF R
(1752624000.460617) vcan0 0CFBFFDB#D16CC75FBCFF00FF R
(1752624000.461227) vcan0 18F48798#038EFFEE1C5BBE92 R
(1752624000.470866) vcan0 18F3862D#D9BDD33584BBFFFF R
(1752624000.471645) vcan0 0CFBFFDB#2A3C5FD16AFF03FF R
(1752624000.472344) vcan0 0CF3C7E6#55AC26E02FCBA21A R
(1752624000.475350) vcan0 0CF90539#FFFFFFFFFFFFFFFF R
(1752624000.481411) vcan0 18FC5058#02F1FFFFFF49FFA8 R
(1752624000.482016) vcan0 0CFBFFDB#F5128E899EFFD8FF R
(1752624000.482714) vcan0 18F9EED9#FFFFFFFFFFFFFFFF R
(1752624000.483541) vcan0 18F2F7E0#FFD54EFFFFFFF415 R
(1752624000.484247) vcan0 18F48798#D81BFF6F47EB8B2A R
(1752624000.484898) vcan0 18F964C8#FFFFFFFFFFFFFFFF R
(1752624000.486467) vcan0 18FB8928#24B6970845D31FBE R
(1752624000.492078) vcan0 18F3862D#BF46736A05DAFFFF R
(1752624000.492734) vcan0 0CFBFFDB#45B15B1FE8FF49FF R
(1752624000.493403) vcan0 0CF28ECA#19D98FFFFFFF0BFF R
(1752624000.496630) vcan0 18F3DF90#63DC05B9E8A7D6F6 R
(1752624000.502314) vcan0 0CFBFFDB#196101BD08FFA8FF R
(1752624000.503109) vcan0 18F48798#262EFFBF9F40F3ED R
(1752624000.507290) vcan0 18FB46AF#C7FFEF5BFFFFABFF R
(1752624000.512566) vcan0 18F3862D#8CE620FB31EFFFFF R
(1752624000.513354) vcan0 0CFBFFDB#DBED065401FF3CFF R
(1752624000.514089) vcan0 18FD0B45#FF15FFFFFFFDE8FF R
(1752624000.514783) vcan0 18F01BEF#9B8E5480FFFFFF11 R
(1752624000.523252) vcan0 0CFBFFDB#7A190D4529FFABFF R
(1752624000.524030) vcan0 18FB08D2#A7C2A068FFFFFFFF R
(1752624000.524758) vcan0 0CF3C7E6#66867988C1A5208B R
(1752624000.525512) vcan0 18F48798#5691FF02E05522A6 R
(1752624000.526217) vcan0 18F60DF6#A03A9E21FFFFFFFF R
(1752624000.526820) vcan0 18F56EFA#C4FC63DAA4BFFFFF R
(1752624000.527933) vcan0 18F4FCA2#D0AD2B01FFFFFFFF R
(1752624000.528730) vcan0 18F56AA2#9510ABFFFFFFFFFF R
(1752624000.533960) vcan0 0CF78D4B#7B493E7E3D6FFFB9 R
(1752624000.534706) vcan0 18F3862D#051BD709E1C6FFFF R
(1752624000.535478) vcan0 0CFBFFDB#5257AD5E27FF52FF R
(1752624000.544632) vcan0 0CFBFFDB#0C48613BFCFF7EFF R
(1752624000.545419) vcan0 0CF28ECA#C9A688FFFFFF08FF R
(1752624000.546163) vcan0 18F0EDC8#BEB6FFFFFFFFFFFF R
(1752624000.546835) vcan0 18F48798#6E94FF77D92D1956 R
(1752624000.549663) vcan0 18FD2367#FFFF42B9873FDC36 R
(1752624000.554898) vcan0 18F3862D#A56533043F04FFFF R
(1752624000.555659) vcan0 0CFBFFDB#0AA76C4504FF5FFF R
(1752624000.565142) vcan0 0CFBFFDB#4CD7089C96FF55FF R
(1752624000.565914) vcan0 18F48798#0838FF37D2941343 R
(1752624000.569524) vcan0 0CF90539#FFFFFFFFFFFFFFFF R
(1752624000.575558) vcan0 18F3862D#10327E854B76FFFF R
(1752624000.576339) vcan0 0CFBFFDB#6F30AAF2C3FFEDFF R
(1752624000.577124) vcan0 18F9EED9#FFFFFFFFFFFFFFFF R
(1752624000.577829) vcan0 18F2F7E0#FFB5DDFFFFFFA2DA R
(1752624000.578649) vcan0 0CF3C7E6#1838FE480D5D2047 R
(1752624000.580927) vcan0 18FB8928#9E908135FC4B23DD R
(1752624000.586777) vcan0 18FC5058#1658FFFFFFAEFF67 R
(1752624000.587478) vcan0 0CFBFFDB#CFC845AADAFFFDFF R
(1752624000.588214) vcan0 18F48798#34E5FF29DDF3DEF7 R
(1752624000.588880) vcan0 18F2CAA1#FFFFFFFFFFFFFFFF R
(1752624000.589590) vcan0 18F964C8#FFFFFFFFFFFFFFFF R
